# MHz S RI R 50
! S-Parameters data
! Freq   reS11   imS11   reS21   imS21   reS12   imS12   reS22   imS22
35.2000000000                    0.9294997765          -0.3681199425          -0.0000000001          -0.0000000001          -0.0000000001          -0.0000000001           0.9294997765          -0.3681199425
35.4000000000                    0.9281251965          -0.3715620587          -0.0000000001          -0.0000000001          -0.0000000001          -0.0000000001           0.9281251965          -0.3715620587
35.6000000000                    0.9267226542          -0.3750364612          -0.0000000001          -0.0000000002          -0.0000000001          -0.0000000002           0.9267226542          -0.3750364612
35.8000000000                    0.9252914396          -0.3785436809          -0.0000000001          -0.0000000002          -0.0000000001          -0.0000000002           0.9252914396          -0.3785436809
36.0000000000                    0.9238308199          -0.3820842586          -0.0000000001          -0.0000000002          -0.0000000001          -0.0000000002           0.9238308199          -0.3820842586
36.2000000000                    0.9223400389          -0.3856587453          -0.0000000001          -0.0000000002          -0.0000000001          -0.0000000002           0.9223400389          -0.3856587453
36.4000000000                    0.9208183157          -0.3892677022          -0.0000000001          -0.0000000002          -0.0000000001          -0.0000000002           0.9208183157          -0.3892677022
36.6000000000                    0.9192648441          -0.3929117011          -0.0000000001          -0.0000000003          -0.0000000001          -0.0000000003           0.9192648441          -0.3929117011
36.8000000000                    0.9176787912          -0.3965913244          -0.0000000001          -0.0000000003          -0.0000000001          -0.0000000003           0.9176787912          -0.3965913244
37.0000000000                    0.9160592969          -0.4003071655          -0.0000000002          -0.0000000003          -0.0000000002          -0.0000000003           0.9160592969          -0.4003071655
37.2000000000                    0.9144054722          -0.4040598288          -0.0000000002          -0.0000000004          -0.0000000002          -0.0000000004           0.9144054722          -0.4040598288
37.4000000000                    0.9127163986          -0.4078499303          -0.0000000002          -0.0000000004          -0.0000000002          -0.0000000004           0.9127163986          -0.4078499303
37.6000000000                    0.9109911265          -0.4116780971          -0.0000000002          -0.0000000005          -0.0000000002          -0.0000000005           0.9109911265          -0.4116780971
37.8000000000                    0.9092286743          -0.4155449684          -0.0000000002          -0.0000000005          -0.0000000002          -0.0000000005           0.9092286743          -0.4155449684
38.0000000000                    0.9074280265          -0.4194511951          -0.0000000003          -0.0000000006          -0.0000000003          -0.0000000006           0.9074280265          -0.4194511951
38.2000000000                    0.9055881330          -0.4233974402          -0.0000000003          -0.0000000007          -0.0000000003          -0.0000000007           0.9055881330          -0.4233974402
38.4000000000                    0.9037079072          -0.4273843792          -0.0000000003          -0.0000000007          -0.0000000003          -0.0000000007           0.9037079072          -0.4273843792
38.6000000000                    0.9017862249          -0.4314126999          -0.0000000004          -0.0000000008          -0.0000000004          -0.0000000008           0.9017862249          -0.4314126999
38.8000000000                    0.8998219220          -0.4354831031          -0.0000000004          -0.0000000009          -0.0000000004          -0.0000000009           0.8998219220          -0.4354831031
39.0000000000                    0.8978137936          -0.4395963020          -0.0000000005          -0.0000000010          -0.0000000005          -0.0000000010           0.8978137936          -0.4395963020
39.2000000000                    0.8957605916          -0.4437530234          -0.0000000006          -0.0000000011          -0.0000000006          -0.0000000011           0.8957605916          -0.4437530234
39.4000000000                    0.8936610236          -0.4479540070          -0.0000000006          -0.0000000012          -0.0000000006          -0.0000000012           0.8936610236          -0.4479540070
39.6000000000                    0.8915137499          -0.4522000059          -0.0000000007          -0.0000000014          -0.0000000007          -0.0000000014           0.8915137499          -0.4522000059
39.8000000000                    0.8893173826          -0.4564917870          -0.0000000008          -0.0000000015          -0.0000000008          -0.0000000015           0.8893173826          -0.4564917870
40.0000000000                    0.8870704827          -0.4608301307          -0.0000000009          -0.0000000017          -0.0000000009          -0.0000000017           0.8870704827          -0.4608301307
40.2000000000                    0.8847715579          -0.4652158312          -0.0000000010          -0.0000000019          -0.0000000010          -0.0000000019           0.8847715579          -0.4652158312
40.4000000000                    0.8824190607          -0.4696496969          -0.0000000012          -0.0000000021          -0.0000000012          -0.0000000021           0.8824190607          -0.4696496969
40.6000000000                    0.8800113853          -0.4741325499          -0.0000000013          -0.0000000024          -0.0000000013          -0.0000000024           0.8800113853          -0.4741325499
40.8000000000                    0.8775468654          -0.4786652267          -0.0000000015          -0.0000000027          -0.0000000015          -0.0000000027           0.8775468654          -0.4786652267
41.0000000000                    0.8750237712          -0.4832485780          -0.0000000017          -0.0000000030          -0.0000000017          -0.0000000030           0.8750237712          -0.4832485780
41.2000000000                    0.8724403065          -0.4878834686          -0.0000000019          -0.0000000033          -0.0000000019          -0.0000000033           0.8724403065          -0.4878834686
41.4000000000                    0.8697946056          -0.4925707774          -0.0000000021          -0.0000000037          -0.0000000021          -0.0000000037           0.8697946056          -0.4925707774
41.6000000000                    0.8670847303          -0.4973113979          -0.0000000024          -0.0000000042          -0.0000000024          -0.0000000042           0.8670847303          -0.4973113979
41.8000000000                    0.8643086659          -0.5021062375          -0.0000000028          -0.0000000046          -0.0000000028          -0.0000000046           0.8643086659          -0.5021062375
42.0000000000                    0.8614643181          -0.5069562177          -0.0000000031          -0.0000000052          -0.0000000031          -0.0000000052           0.8614643181          -0.5069562177
42.2000000000                    0.8585495089          -0.5118622739          -0.0000000035          -0.0000000058          -0.0000000035          -0.0000000058           0.8585495089          -0.5118622739
42.4000000000                    0.8555619726          -0.5168253552          -0.0000000040          -0.0000000065          -0.0000000040          -0.0000000065           0.8555619726          -0.5168253552
42.6000000000                    0.8524993514          -0.5218464243          -0.0000000045          -0.0000000073          -0.0000000045          -0.0000000073           0.8524993514          -0.5218464243
42.8000000000                    0.8493591910          -0.5269264570          -0.0000000052          -0.0000000082          -0.0000000052          -0.0000000082           0.8493591910          -0.5269264570
43.0000000000                    0.8461389358          -0.5320664419          -0.0000000059          -0.0000000091          -0.0000000059          -0.0000000091           0.8461389358          -0.5320664419
43.2000000000                    0.8428359237          -0.5372673800          -0.0000000067          -0.0000000102          -0.0000000067          -0.0000000102           0.8428359237          -0.5372673800
43.4000000000                    0.8394473805          -0.5425302840          -0.0000000076          -0.0000000115          -0.0000000076          -0.0000000115           0.8394473805          -0.5425302840
43.6000000000                    0.8359704148          -0.5478561779          -0.0000000086          -0.0000000129          -0.0000000086          -0.0000000129           0.8359704148          -0.5478561779
43.8000000000                    0.8324020111          -0.5532460961          -0.0000000098          -0.0000000145          -0.0000000098          -0.0000000145           0.8324020111          -0.5532460961
44.0000000000                    0.8287390242          -0.5587010826          -0.0000000112          -0.0000000162          -0.0000000112          -0.0000000162           0.8287390242          -0.5587010826
44.2000000000                    0.8249781716          -0.5642221899          -0.0000000127          -0.0000000182          -0.0000000127          -0.0000000182           0.8249781716          -0.5642221899
44.4000000000                    0.8211160266          -0.5698104780          -0.0000000145          -0.0000000205          -0.0000000145          -0.0000000205           0.8211160266          -0.5698104780
44.6000000000                    0.8171490107          -0.5754670132          -0.0000000166          -0.0000000231          -0.0000000166          -0.0000000231           0.8171490107          -0.5754670132
44.8000000000                    0.8130733849          -0.5811928663          -0.0000000189          -0.0000000259          -0.0000000189          -0.0000000259           0.8130733849          -0.5811928663
45.0000000000                    0.8088852415          -0.5869891111          -0.0000000216          -0.0000000292          -0.0000000216          -0.0000000292           0.8088852415          -0.5869891111
45.2000000000                    0.8045804942          -0.5928568226          -0.0000000247          -0.0000000329          -0.0000000247          -0.0000000329           0.8045804942          -0.5928568226
45.4000000000                    0.8001548688          -0.5987970745          -0.0000000283          -0.0000000371          -0.0000000283          -0.0000000371           0.8001548688          -0.5987970745
45.6000000000                    0.7956038919          -0.6048109372          -0.0000000324          -0.0000000418          -0.0000000324          -0.0000000418           0.7956038919          -0.6048109372
45.8000000000                    0.7909228800          -0.6108994745          -0.0000000372          -0.0000000471          -0.0000000372          -0.0000000471           0.7909228800          -0.6108994745
46.0000000000                    0.7861069275          -0.6170637410          -0.0000000426          -0.0000000532          -0.0000000426          -0.0000000532           0.7861069275          -0.6170637410
46.2000000000                    0.7811508935          -0.6233047784          -0.0000000490          -0.0000000601          -0.0000000490          -0.0000000601           0.7811508935          -0.6233047784
46.4000000000                    0.7760493882          -0.6296236113          -0.0000000563          -0.0000000679          -0.0000000563          -0.0000000679           0.7760493882          -0.6296236113
46.6000000000                    0.7707967580          -0.6360212430          -0.0000000647          -0.0000000767          -0.0000000647          -0.0000000767           0.7707967580          -0.6360212430
46.8000000000                    0.7653870697          -0.6424986508          -0.0000000745          -0.0000000868          -0.0000000745          -0.0000000868           0.7653870697          -0.6424986508
47.0000000000                    0.7598140937          -0.6490567798          -0.0000000858          -0.0000000983          -0.0000000858          -0.0000000983           0.7598140937          -0.6490567798
47.2000000000                    0.7540712858          -0.6556965370          -0.0000000989          -0.0000001113          -0.0000000989          -0.0000001113           0.7540712858          -0.6556965370
47.4000000000                    0.7481517676          -0.6624187841          -0.0000001142          -0.0000001262          -0.0000001142          -0.0000001262           0.7481517676          -0.6624187841
47.6000000000                    0.7420483054          -0.6692243297          -0.0000001319          -0.0000001431          -0.0000001319          -0.0000001431           0.7420483054          -0.6692243297
47.8000000000                    0.7357532882          -0.6761139204          -0.0000001526          -0.0000001624          -0.0000001526          -0.0000001624           0.7357532882          -0.6761139204
48.0000000000                    0.7292587031          -0.6830882307          -0.0000001767          -0.0000001844          -0.0000001767          -0.0000001844           0.7292587031          -0.6830882307
48.2000000000                    0.7225561094          -0.6901478517          -0.0000002048          -0.0000002096          -0.0000002048          -0.0000002096           0.7225561094          -0.6901478517
48.4000000000                    0.7156366104          -0.6972932789          -0.0000002376          -0.0000002383          -0.0000002376          -0.0000002383           0.7156366104          -0.6972932789
48.6000000000                    0.7084908235          -0.7045248978          -0.0000002760          -0.0000002712          -0.0000002760          -0.0000002712           0.7084908235          -0.7045248978
48.8000000000                    0.7011088468          -0.7118429677          -0.0000003210          -0.0000003089          -0.0000003210          -0.0000003089           0.7011088468          -0.7118429677
49.0000000000                    0.6934802249          -0.7192476045          -0.0000003737          -0.0000003520          -0.0000003737          -0.0000003520           0.6934802249          -0.7192476045
49.2000000000                    0.6855939096          -0.7267387600          -0.0000004357          -0.0000004014          -0.0000004357          -0.0000004014           0.6855939096          -0.7267387600
49.4000000000                    0.6774382196          -0.7343161993          -0.0000005086          -0.0000004581          -0.0000005086          -0.0000004581           0.6774382196          -0.7343161993
49.6000000000                    0.6690007952          -0.7419794755          -0.0000005945          -0.0000005232          -0.0000005945          -0.0000005232           0.6690007952          -0.7419794755
49.8000000000                    0.6602685498          -0.7497279005          -0.0000006959          -0.0000005979          -0.0000006959          -0.0000005979           0.6602685498          -0.7497279005
50.0000000000                    0.6512276179          -0.7575605126          -0.0000008156          -0.0000006838          -0.0000008156          -0.0000006838           0.6512276179          -0.7575605126
50.2000000000                    0.6418632972          -0.7654760398          -0.0000009573          -0.0000007826          -0.0000009573          -0.0000007826           0.6418632972          -0.7654760398
50.4000000000                    0.6321599869          -0.7734728576          -0.0000011253          -0.0000008963          -0.0000011253          -0.0000008963           0.6321599869          -0.7734728576
50.6000000000                    0.6221011199          -0.7815489424          -0.0000013248          -0.0000010272          -0.0000013248          -0.0000010272           0.6221011199          -0.7815489424
50.8000000000                    0.6116690891          -0.7897018172          -0.0000015622          -0.0000011780          -0.0000015622          -0.0000011780           0.6116690891          -0.7897018172
51.0000000000                    0.6008451670          -0.7979284915          -0.0000018450          -0.0000013519          -0.0000018450          -0.0000013519           0.6008451670          -0.7979284915
51.2000000000                    0.5896094176          -0.8062253909          -0.0000021827          -0.0000015523          -0.0000021827          -0.0000015523           0.5896094176          -0.8062253909
51.4000000000                    0.5779406009          -0.8145882794          -0.0000025867          -0.0000017836          -0.0000025867          -0.0000017836           0.5779406009          -0.8145882794
51.6000000000                    0.5658160673          -0.8230121679          -0.0000030709          -0.0000020504          -0.0000030709          -0.0000020504           0.5658160673          -0.8230121679
51.8000000000                    0.5532116427          -0.8314912123          -0.0000036525          -0.0000023583          -0.0000036525          -0.0000023583           0.5532116427          -0.8314912123
52.0000000000                    0.5401015023          -0.8400185946          -0.0000043525          -0.0000027136          -0.0000043525          -0.0000027136           0.5401015023          -0.8400185946
52.2000000000                    0.5264580314          -0.8485863875          -0.0000051969          -0.0000031234          -0.0000051969          -0.0000031234           0.5264580314          -0.8485863875
52.4000000000                    0.5122516737          -0.8571853988          -0.0000062178          -0.0000035959          -0.0000062178          -0.0000035959           0.5122516737          -0.8571853988
52.6000000000                    0.4974507632          -0.8658049912          -0.0000074549          -0.0000041404          -0.0000074549          -0.0000041404           0.4974507632          -0.8658049912
52.8000000000                    0.4820213392          -0.8744328752          -0.0000089577          -0.0000047671          -0.0000089577          -0.0000047671           0.4820213392          -0.8744328752
53.0000000000                    0.4659269430          -0.8830548681          -0.0000107877          -0.0000054873          -0.0000107877          -0.0000054873           0.4659269430          -0.8830548681
53.2000000000                    0.4491283928          -0.8916546150          -0.0000130221          -0.0000063133          -0.0000130221          -0.0000063133           0.4491283928          -0.8916546150
53.4000000000                    0.4315835354          -0.9002132640          -0.0000157574          -0.0000072579          -0.0000157574          -0.0000072579           0.4315835354          -0.9002132640
53.6000000000                    0.4132469720          -0.9087090860          -0.0000191154          -0.0000083341          -0.0000191154          -0.0000083341           0.4132469720          -0.9087090860
53.8000000000                    0.3940697543          -0.9171170305          -0.0000232498          -0.0000095544          -0.0000232498          -0.0000095544           0.3940697543          -0.9171170305
54.0000000000                    0.3739990486          -0.9254082030          -0.0000283552          -0.0000109289          -0.0000283552          -0.0000109289           0.3739990486          -0.9254082030
