# GHz S RI R 50
! S-Parameters data
! Freq   reS11   imS11   reS21   imS21   reS12   imS12   reS22   imS22
4.9701000000                     0.9981571855          -0.0527291697           0.0000000055          -0.0000000007           0.0000000055          -0.0000000007           0.9981571855          -0.0527291697
4.9702000000                     0.9981445065          -0.0529097242           0.0000000056          -0.0000000007           0.0000000056          -0.0000000007           0.9981445065          -0.0529097242
4.9703000000                     0.9981316955          -0.0530915266           0.0000000058          -0.0000000007           0.0000000058          -0.0000000007           0.9981316955          -0.0530915266
4.9704000000                     0.9981187507          -0.0532745899           0.0000000060          -0.0000000007           0.0000000060          -0.0000000007           0.9981187507          -0.0532745899
4.9705000000                     0.9981056701          -0.0534589275           0.0000000061          -0.0000000008           0.0000000061          -0.0000000008           0.9981056701          -0.0534589275
4.9706000000                     0.9980924518          -0.0536445527           0.0000000063          -0.0000000008           0.0000000063          -0.0000000008           0.9980924518          -0.0536445527
4.9707000000                     0.9980790938          -0.0538314792           0.0000000065          -0.0000000008           0.0000000065          -0.0000000008           0.9980790938          -0.0538314792
4.9708000000                     0.9980655943          -0.0540197209           0.0000000067          -0.0000000008           0.0000000067          -0.0000000008           0.9980655943          -0.0540197209
4.9709000000                     0.9980519511          -0.0542092918           0.0000000068          -0.0000000009           0.0000000068          -0.0000000009           0.9980519511          -0.0542092918
4.9710000000                     0.9980381622          -0.0544002062           0.0000000070          -0.0000000009           0.0000000070          -0.0000000009           0.9980381622          -0.0544002062
4.9711000000                     0.9980242254          -0.0545924786           0.0000000072          -0.0000000009           0.0000000072          -0.0000000009           0.9980242254          -0.0545924786
4.9712000000                     0.9980101388          -0.0547861236           0.0000000074          -0.0000000009           0.0000000074          -0.0000000009           0.9980101388          -0.0547861236
4.9713000000                     0.9979959000          -0.0549811562           0.0000000077          -0.0000000010           0.0000000077          -0.0000000010           0.9979959000          -0.0549811562
4.9714000000                     0.9979815070          -0.0551775913           0.0000000079          -0.0000000010           0.0000000079          -0.0000000010           0.9979815070          -0.0551775913
4.9715000000                     0.9979669573          -0.0553754444           0.0000000081          -0.0000000010           0.0000000081          -0.0000000010           0.9979669573          -0.0553754444
4.9716000000                     0.9979522488          -0.0555747310           0.0000000083          -0.0000000011           0.0000000083          -0.0000000011           0.9979522488          -0.0555747310
4.9717000000                     0.9979373790          -0.0557754669           0.0000000086          -0.0000000011           0.0000000086          -0.0000000011           0.9979373790          -0.0557754669
4.9718000000                     0.9979223457          -0.0559776680           0.0000000088          -0.0000000011           0.0000000088          -0.0000000011           0.9979223457          -0.0559776680
4.9719000000                     0.9979071463          -0.0561813508           0.0000000091          -0.0000000012           0.0000000091          -0.0000000012           0.9979071463          -0.0561813508
4.9720000000                     0.9978917785          -0.0563865316           0.0000000094          -0.0000000012           0.0000000094          -0.0000000012           0.9978917785          -0.0563865316
4.9721000000                     0.9978762396          -0.0565932272           0.0000000096          -0.0000000013           0.0000000096          -0.0000000013           0.9978762396          -0.0565932272
4.9722000000                     0.9978605272          -0.0568014546           0.0000000099          -0.0000000013           0.0000000099          -0.0000000013           0.9978605272          -0.0568014546
4.9723000000                     0.9978446386          -0.0570112311           0.0000000102          -0.0000000013           0.0000000102          -0.0000000013           0.9978446386          -0.0570112311
4.9724000000                     0.9978285711          -0.0572225743           0.0000000105          -0.0000000014           0.0000000105          -0.0000000014           0.9978285711          -0.0572225743
4.9725000000                     0.9978123220          -0.0574355017           0.0000000108          -0.0000000014           0.0000000108          -0.0000000014           0.9978123220          -0.0574355017
4.9726000000                     0.9977958886          -0.0576500317           0.0000000112          -0.0000000015           0.0000000112          -0.0000000015           0.9977958886          -0.0576500317
4.9727000000                     0.9977792681          -0.0578661824           0.0000000115          -0.0000000015           0.0000000115          -0.0000000015           0.9977792681          -0.0578661824
4.9728000000                     0.9977624575          -0.0580839726           0.0000000119          -0.0000000016           0.0000000119          -0.0000000016           0.9977624575          -0.0580839726
4.9729000000                     0.9977454539          -0.0583034211           0.0000000122          -0.0000000016           0.0000000122          -0.0000000016           0.9977454539          -0.0583034211
4.9730000000                     0.9977282544          -0.0585245472           0.0000000126          -0.0000000017           0.0000000126          -0.0000000017           0.9977282544          -0.0585245472
4.9731000000                     0.9977108558          -0.0587473703           0.0000000130          -0.0000000018           0.0000000130          -0.0000000018           0.9977108558          -0.0587473703
4.9732000000                     0.9976932552          -0.0589719103           0.0000000134          -0.0000000018           0.0000000134          -0.0000000018           0.9976932552          -0.0589719103
4.9733000000                     0.9976754493          -0.0591981873           0.0000000138          -0.0000000019           0.0000000138          -0.0000000019           0.9976754493          -0.0591981873
4.9734000000                     0.9976574348          -0.0594262218           0.0000000142          -0.0000000019           0.0000000142          -0.0000000019           0.9976574348          -0.0594262218
4.9735000000                     0.9976392086          -0.0596560345           0.0000000147          -0.0000000020           0.0000000147          -0.0000000020           0.9976392086          -0.0596560345
4.9736000000                     0.9976207672          -0.0598876466           0.0000000151          -0.0000000021           0.0000000151          -0.0000000021           0.9976207672          -0.0598876466
4.9737000000                     0.9976021072          -0.0601210794           0.0000000156          -0.0000000022           0.0000000156          -0.0000000022           0.9976021072          -0.0601210794
4.9738000000                     0.9975832251          -0.0603563549           0.0000000161          -0.0000000022           0.0000000161          -0.0000000022           0.9975832251          -0.0603563549
4.9739000000                     0.9975641173          -0.0605934951           0.0000000166          -0.0000000023           0.0000000166          -0.0000000023           0.9975641173          -0.0605934951
4.9740000000                     0.9975447802          -0.0608325225           0.0000000171          -0.0000000024           0.0000000171          -0.0000000024           0.9975447802          -0.0608325225
4.9741000000                     0.9975252101          -0.0610734601           0.0000000177          -0.0000000025           0.0000000177          -0.0000000025           0.9975252101          -0.0610734601
4.9742000000                     0.9975054031          -0.0613163310           0.0000000182          -0.0000000026           0.0000000182          -0.0000000026           0.9975054031          -0.0613163310
4.9743000000                     0.9974853555          -0.0615611589           0.0000000188          -0.0000000027           0.0000000188          -0.0000000027           0.9974853555          -0.0615611589
4.9744000000                     0.9974650633          -0.0618079679           0.0000000194          -0.0000000028           0.0000000194          -0.0000000028           0.9974650633          -0.0618079679
4.9745000000                     0.9974445223          -0.0620567822           0.0000000201          -0.0000000029           0.0000000201          -0.0000000029           0.9974445223          -0.0620567822
4.9746000000                     0.9974237286          -0.0623076269           0.0000000207          -0.0000000030           0.0000000207          -0.0000000030           0.9974237286          -0.0623076269
4.9747000000                     0.9974026779          -0.0625605271           0.0000000214          -0.0000000031           0.0000000214          -0.0000000031           0.9974026779          -0.0625605271
4.9748000000                     0.9973813658          -0.0628155085           0.0000000221          -0.0000000032           0.0000000221          -0.0000000032           0.9973813658          -0.0628155085
4.9749000000                     0.9973597882          -0.0630725972           0.0000000228          -0.0000000033           0.0000000228          -0.0000000033           0.9973597882          -0.0630725972
4.9750000000                     0.9973379403          -0.0633318197           0.0000000236          -0.0000000034           0.0000000236          -0.0000000034           0.9973379403          -0.0633318197
4.9751000000                     0.9973158178          -0.0635932032           0.0000000244          -0.0000000036           0.0000000244          -0.0000000036           0.9973158178          -0.0635932032
4.9752000000                     0.9972934158          -0.0638567749           0.0000000252          -0.0000000037           0.0000000252          -0.0000000037           0.9972934158          -0.0638567749
4.9753000000                     0.9972707297          -0.0641225629           0.0000000260          -0.0000000039           0.0000000260          -0.0000000039           0.9972707297          -0.0641225629
4.9754000000                     0.9972477546          -0.0643905956           0.0000000269          -0.0000000040           0.0000000269          -0.0000000040           0.9972477546          -0.0643905956
4.9755000000                     0.9972244854          -0.0646609018           0.0000000278          -0.0000000042           0.0000000278          -0.0000000042           0.9972244854          -0.0646609018
4.9756000000                     0.9972009171          -0.0649335112           0.0000000287          -0.0000000043           0.0000000287          -0.0000000043           0.9972009171          -0.0649335112
4.9757000000                     0.9971770446          -0.0652084534           0.0000000297          -0.0000000045           0.0000000297          -0.0000000045           0.9971770446          -0.0652084534
4.9758000000                     0.9971528624          -0.0654857591           0.0000000307          -0.0000000047           0.0000000307          -0.0000000047           0.9971528624          -0.0654857591
4.9759000000                     0.9971283652          -0.0657654593           0.0000000318          -0.0000000048           0.0000000318          -0.0000000048           0.9971283652          -0.0657654593
4.9760000000                     0.9971035473          -0.0660475854           0.0000000329          -0.0000000050           0.0000000329          -0.0000000050           0.9971035473          -0.0660475854
4.9761000000                     0.9970784032          -0.0663321696           0.0000000340          -0.0000000052           0.0000000340          -0.0000000052           0.9970784032          -0.0663321696
4.9762000000                     0.9970529270          -0.0666192447           0.0000000352          -0.0000000054           0.0000000352          -0.0000000054           0.9970529270          -0.0666192447
4.9763000000                     0.9970271127          -0.0669088438           0.0000000365          -0.0000000056           0.0000000365          -0.0000000056           0.9970271127          -0.0669088438
4.9764000000                     0.9970009544          -0.0672010009           0.0000000377          -0.0000000059           0.0000000377          -0.0000000059           0.9970009544          -0.0672010009
4.9765000000                     0.9969744457          -0.0674957505           0.0000000391          -0.0000000061           0.0000000391          -0.0000000061           0.9969744457          -0.0674957505
4.9766000000                     0.9969475804          -0.0677931278           0.0000000405          -0.0000000063           0.0000000405          -0.0000000063           0.9969475804          -0.0677931278
4.9767000000                     0.9969203519          -0.0680931684           0.0000000419          -0.0000000066           0.0000000419          -0.0000000066           0.9969203519          -0.0680931684
4.9768000000                     0.9968927537          -0.0683959090           0.0000000434          -0.0000000069           0.0000000434          -0.0000000069           0.9968927537          -0.0683959090
4.9769000000                     0.9968647788          -0.0687013865           0.0000000450          -0.0000000071           0.0000000450          -0.0000000071           0.9968647788          -0.0687013865
4.9770000000                     0.9968364203          -0.0690096389           0.0000000466          -0.0000000074           0.0000000466          -0.0000000074           0.9968364203          -0.0690096389
4.9771000000                     0.9968076712          -0.0693207045           0.0000000483          -0.0000000077           0.0000000483          -0.0000000077           0.9968076712          -0.0693207045
4.9772000000                     0.9967785240          -0.0696346228           0.0000000500          -0.0000000081           0.0000000500          -0.0000000081           0.9967785240          -0.0696346228
4.9773000000                     0.9967489715          -0.0699514337           0.0000000519          -0.0000000084           0.0000000519          -0.0000000084           0.9967489715          -0.0699514337
4.9774000000                     0.9967190058          -0.0702711779           0.0000000538          -0.0000000088           0.0000000538          -0.0000000088           0.9967190058          -0.0702711779
4.9775000000                     0.9966886191          -0.0705938971           0.0000000558          -0.0000000091           0.0000000558          -0.0000000091           0.9966886191          -0.0705938971
4.9776000000                     0.9966578036          -0.0709196335           0.0000000578          -0.0000000095           0.0000000578          -0.0000000095           0.9966578036          -0.0709196335
4.9777000000                     0.9966265509          -0.0712484302           0.0000000600          -0.0000000099           0.0000000600          -0.0000000099           0.9966265509          -0.0712484302
4.9778000000                     0.9965948526          -0.0715803314           0.0000000623          -0.0000000103           0.0000000623          -0.0000000103           0.9965948526          -0.0715803314
4.9779000000                     0.9965627001          -0.0719153818           0.0000000646          -0.0000000108           0.0000000646          -0.0000000108           0.9965627001          -0.0719153818
4.9780000000                     0.9965300847          -0.0722536273           0.0000000671          -0.0000000112           0.0000000671          -0.0000000112           0.9965300847          -0.0722536273
4.9781000000                     0.9964969971          -0.0725951143           0.0000000696          -0.0000000117           0.0000000696          -0.0000000117           0.9964969971          -0.0725951143
4.9782000000                     0.9964634283          -0.0729398906           0.0000000723          -0.0000000122           0.0000000723          -0.0000000122           0.9964634283          -0.0729398906
4.9783000000                     0.9964293687          -0.0732880046           0.0000000750          -0.0000000128           0.0000000750          -0.0000000128           0.9964293687          -0.0732880046
4.9784000000                     0.9963948084          -0.0736395058           0.0000000779          -0.0000000133           0.0000000779          -0.0000000133           0.9963948084          -0.0736395058
4.9785000000                     0.9963597377          -0.0739944448           0.0000000810          -0.0000000139           0.0000000810          -0.0000000139           0.9963597377          -0.0739944448
4.9786000000                     0.9963241461          -0.0743528730           0.0000000841          -0.0000000145           0.0000000841          -0.0000000145           0.9963241461          -0.0743528730
4.9787000000                     0.9962880233          -0.0747148430           0.0000000874          -0.0000000152           0.0000000874          -0.0000000152           0.9962880233          -0.0747148430
4.9788000000                     0.9962513584          -0.0750804084           0.0000000909          -0.0000000158           0.0000000909          -0.0000000158           0.9962513584          -0.0750804084
4.9789000000                     0.9962141404          -0.0754496240           0.0000000945          -0.0000000165           0.0000000945          -0.0000000165           0.9962141404          -0.0754496240
4.9790000000                     0.9961763579          -0.0758225458           0.0000000982          -0.0000000173           0.0000000982          -0.0000000173           0.9961763579          -0.0758225458
4.9791000000                     0.9961379994          -0.0761992306           0.0000001022          -0.0000000181           0.0000001022          -0.0000000181           0.9961379994          -0.0761992306
4.9792000000                     0.9960990529          -0.0765797369           0.0000001063          -0.0000000189           0.0000001063          -0.0000000189           0.9960990529          -0.0765797369
4.9793000000                     0.9960595061          -0.0769641240           0.0000001106          -0.0000000198           0.0000001106          -0.0000000198           0.9960595061          -0.0769641240
4.9794000000                     0.9960193464          -0.0773524528           0.0000001151          -0.0000000207           0.0000001151          -0.0000000207           0.9960193464          -0.0773524528
4.9795000000                     0.9959785611          -0.0777447852           0.0000001198          -0.0000000216           0.0000001198          -0.0000000216           0.9959785611          -0.0777447852
